T3C14 22764:180 SEGGER J-Link V6.32i Log File (0001ms, 180963ms total)
T3C14 22764:180 DLL Compiled: Jul 24 2018 15:19:55 (0001ms, 180963ms total)
T3C14 22764:180 Logging started @ 2018-10-30 15:58 (0001ms, 180963ms total)
T3C14 22764:181 JLINK_SetWarnOutHandler(...) (0000ms, 180963ms total)
T3C14 22764:181 JLINK_OpenEx(...)
Firmware: J-Link V10 compiled Sep  4 2018 11:24:21
Hardware: V10.10
S/N: 260107568
OEM: SEGGER-EDU
Feature(s): FlashBP, GDB
TELNET listener socket opened on port 19021WEBSRV 
Starting webserver (0019ms, 180982ms total)
T3C14 22764:181 WEBSRV Webserver running on local port 19080 (0019ms, 180982ms total)
T3C14 22764:181   returns O.K. (0019ms, 180982ms total)
T3C14 22764:200 JLINK_GetEmuCaps()  returns 0xB9FF7BBF (0000ms, 180982ms total)
T3C14 22764:200 JLINK_TIF_GetAvailable(...) (0001ms, 180983ms total)
T3C14 22764:201 JLINK_SetErrorOutHandler(...) (0000ms, 180983ms total)
T3C14 22764:201 JLINK_ExecCommand("ProjectFile = "C:\Users\cking\Documents\C_code\AR5_Project\JLinkSettings.ini"", ...).   returns 0x00 (0001ms, 180984ms total)
T3C14 22764:202 JLINK_ExecCommand("Device = STM32F405RG", ...). Device "STM32F405RG" selected.  returns 0x00 (0002ms, 180986ms total)
T3C14 22764:204 JLINK_ExecCommand("DisableConnectionTimeout", ...).   returns 0x01 (0000ms, 180986ms total)
T3C14 22764:204 JLINK_GetHardwareVersion()  returns 0x18A88 (0000ms, 180986ms total)
T3C14 22764:204 JLINK_GetDLLVersion()  returns 63209 (0000ms, 180986ms total)
T3C14 22764:204 JLINK_GetDLLVersion()  returns 63209 (0000ms, 180986ms total)
T3C14 22764:204 JLINK_GetCompileDateTime() (0000ms, 180986ms total)
T3C14 22764:204 JLINK_GetFirmwareString(...) (0000ms, 180986ms total)
T3C14 22764:204 JLINK_GetHardwareVersion()  returns 0x18A88 (0000ms, 180986ms total)
T3C14 22764:204 JLINK_TIF_Select(JLINKARM_TIF_SWD)  returns 0x00 (0001ms, 180987ms total)
T3C14 22764:205 JLINK_SetSpeed(5000) (0000ms, 180987ms total)
T3C14 22764:205 JLINK_GetId() >0x10B TIF>Found SW-DP with ID 0x2BA01477 >0x0D TIF> >0x28 TIF> >0x0D TIF> >0x28 TIF> >0x0D TIF> >0x28 TIF> >0x0D TIF> >0x28 TIF> >0x0D TIF> >0x21 TIF> >0x0D TIF> >0x28 TIF> >0x0D TIF> >0x28 TIF> >0x0D TIF> >0x28 TIF> >0x0D TIF> >0x21 TIF> >0x0D TIF> >0x21 TIF> >0x0D TIF> >0x28 TIF> >0x0D TIF> >0x21 TIF> >0x0D TIF> >0x21 TIF> >0x0D TIF> >0x28 TIF> >0x0D TIF> >0x21 TIF> >0x0D TIF> >0x21 TIF> >0x0D TIF> >0x28 TIF> >0x0D TIF> >0x21 TIF> >0x0D TIF> >0x21 TIF> >0x0D TIF>
 >0x28 TIF> >0x0D TIF> >0x21 TIF> >0x0D TIF> >0x21 TIF> >0x0D TIF> >0x28 TIF> >0x0D TIF> >0x21 TIF> >0x0D TIF> >0x21 TIF> >0x10B TIF>Found SW-DP with ID 0x2BA01477 >0x0D TIF> >0x28 TIF> >0x0D TIF> >0x28 TIF> >0x0D TIF> >0x28 TIF> >0x0D TIF> >0x28 TIF> >0x0D TIF> >0x21 TIF> >0x0D TIF> >0x28 TIF>Scanning AP map to find all available APs >0x0D TIF> >0x28 TIF> >0x0D TIF> >0x21 TIF> >0x0D TIF> >0x21 TIF> >0x0D TIF> >0x28 TIF> >0x0D TIF> >0x21 TIF> >0x0D TIF> >0x21 TIF>
AP[1]: Stopped AP scan as end of AP map has been reachedAP[0]: AHB-AP (IDR: 0x24770011)Iterating through AP map to find AHB-AP to use >0x42 TIF> >0x28 TIF> >0x0D TIF> >0x28 TIF> >0x0D TIF> >0x21 TIF> >0x0D TIF> >0x21 TIF> >0x42 TIF> >0x28 TIF> >0x0D TIF> >0x28 TIF> >0x0D TIF> >0x28 TIF> >0x0D TIF> >0x21 TIF> >0x0D TIF> >0x21 TIF>AP[0]: Core foundAP[0]: AHB-AP ROM base: 0xE00FF000 >0x0D TIF> >0x28 TIF> >0x0D TIF> >0x28 TIF> >0x0D TIF> >0x28 TIF> >0x0D TIF> >0x21 TIF> >0x0D TIF> >0x21 TIF>
CPUID register: 0x410FC241. Implementer code: 0x41 (ARM)Found Cortex-M4 r0p1, Little endian. -- Max. mem block: 0x00001508 -- CPU_ReadMem(4 bytes @ 0xE000EDF0) -- CPU_WriteMem(4 bytes @ 0xE000EDF0) -- CPU_ReadMem(4 bytes @ 0xE0002000)FPUnit: 6 code (BP) slots and 2 literal slots -- CPU_ReadMem(4 bytes @ 0xE000EDFC) -- CPU_WriteMem(4 bytes @ 0xE000EDFC) -- CPU_ReadMem(4 bytes @ 0xE0001000) -- CPU_WriteMem(4 bytes @ 0xE0001000) -- CPU_ReadMem(4 bytes @ 0xE000ED88) -- CPU_WriteMem(4 bytes @ 0xE000ED88)
 -- CPU_ReadMem(4 bytes @ 0xE000ED88) -- CPU_WriteMem(4 bytes @ 0xE000ED88)CoreSight components:ROMTbl[0] @ E00FF000 -- CPU_ReadMem(16 bytes @ 0xE00FF000) -- CPU_ReadMem(16 bytes @ 0xE000EFF0) -- CPU_ReadMem(16 bytes @ 0xE000EFE0)ROMTbl[0][0]: E000E000, CID: B105E00D, PID: 000BB00C SCS-M7 -- CPU_ReadMem(16 bytes @ 0xE0001FF0) -- CPU_ReadMem(16 bytes @ 0xE0001FE0)ROMTbl[0][1]: E0001000, CID: B105E00D, PID: 003BB002 DWT -- CPU_ReadMem(16 bytes @ 0xE0002FF0) -- CPU_ReadMem(16 bytes @ 0xE0002FE0)
ROMTbl[0][2]: E0002000, CID: B105E00D, PID: 002BB003 FPB -- CPU_ReadMem(16 bytes @ 0xE0000FF0) -- CPU_ReadMem(16 bytes @ 0xE0000FE0)ROMTbl[0][3]: E0000000, CID: B105E00D, PID: 003BB001 ITM -- CPU_ReadMem(16 bytes @ 0xE00FF010) -- CPU_ReadMem(16 bytes @ 0xE0040FF0) -- CPU_ReadMem(16 bytes @ 0xE0040FE0)ROMTbl[0][4]: E0040000, CID: B105900D, PID: 000BB9A1 TPIU -- CPU_ReadMem(16 bytes @ 0xE0041FF0) -- CPU_ReadMem(16 bytes @ 0xE0041FE0)ROMTbl[0][5]: E0041000, CID: B105900D, PID: 000BB925 ETM >0x0D TIF>
 >0x21 TIF>  returns 0x2BA01477 (0154ms, 181141ms total)
T3C14 22764:360 JLINK_GetDLLVersion()  returns 63209 (0000ms, 181141ms total)
T3C14 22764:360 JLINK_CORE_GetFound()  returns 0xE0000FF (0000ms, 181141ms total)
T3C14 22764:360 JLINK_GetDebugInfo(0x100 = JLINKARM_ROM_TABLE_ADDR_INDEX) -- Value=0xE00FF000  returns 0x00 (0000ms, 181141ms total)
T3C14 22764:360 JLINK_GetDebugInfo(0x100 = JLINKARM_ROM_TABLE_ADDR_INDEX) -- Value=0xE00FF000  returns 0x00 (0000ms, 181141ms total)
T3C14 22764:360 JLINK_GetDebugInfo(0x101 = JLINKARM_DEBUG_INFO_ETM_ADDR_INDEX) -- Value=0xE0041000  returns 0x00 (0000ms, 181141ms total)
T3C14 22764:360 JLINK_ReadMemEx(0xE0041FD0, 0x0020 Bytes, ..., Flags = 0x02000004) -- CPU_ReadMem(32 bytes @ 0xE0041FD0) - Data: 04 00 00 00 00 00 00 00 00 00 00 00 00 00 00 00 ...  returns 0x20 (0001ms, 181142ms total)
T3C14 22764:361 JLINK_GetDebugInfo(0x102 = JLINKARM_DEBUG_INFO_MTB_ADDR_INDEX) -- Value=0x00000000  returns 0x00 (0000ms, 181142ms total)
T3C14 22764:361 JLINK_GetDebugInfo(0x103 = JLINKARM_DEBUG_INFO_TPIU_ADDR_INDEX) -- Value=0xE0040000  returns 0x00 (0000ms, 181142ms total)
T3C14 22764:361 JLINK_GetDebugInfo(0x104 = JLINKARM_DEBUG_INFO_ITM_ADDR_INDEX) -- Value=0xE0000000  returns 0x00 (0000ms, 181142ms total)
T3C14 22764:361 JLINK_GetDebugInfo(0x105 = JLINKARM_DEBUG_INFO_DWT_ADDR_INDEX) -- Value=0xE0001000  returns 0x00 (0000ms, 181142ms total)
T3C14 22764:361 JLINK_GetDebugInfo(0x106 = JLINKARM_DEBUG_INFO_FPB_ADDR_INDEX) -- Value=0xE0002000  returns 0x00 (0000ms, 181142ms total)
T3C14 22764:361 JLINK_GetDebugInfo(0x107 = JLINKARM_DEBUG_INFO_NVIC_ADDR_INDEX) -- Value=0xE000E000  returns 0x00 (0000ms, 181142ms total)
T3C14 22764:361 JLINK_GetDebugInfo(0x10C = JLINKARM_DEBUG_INFO_DBG_ADDR_INDEX) -- Value=0xE000EDF0  returns 0x00 (0000ms, 181142ms total)
T3C14 22764:361 JLINK_GetDebugInfo(0x01 = Unknown) -- Value=0x00000001  returns 0x00 (0000ms, 181142ms total)
T3C14 22764:361 JLINK_ReadMemU32(0xE000ED00, 0x0001 Items, ...) -- CPU_ReadMem(4 bytes @ 0xE000ED00) - Data: 41 C2 0F 41  returns 0x01 (0001ms, 181143ms total)
T3C14 22764:362 JLINK_GetDebugInfo(0x10F = JLINKARM_DEBUG_INFO_HAS_CORTEX_M_SECURITY_EXT_INDEX) -- Value=0x00000000  returns 0x00 (0000ms, 181143ms total)
T3C14 22764:362 JLINK_SetResetType(JLINKARM_CM3_RESET_TYPE_NORMAL)  returns JLINKARM_CM3_RESET_TYPE_NORMAL (0000ms, 181143ms total)
T3C14 22764:362 JLINK_Reset() -- CPU is running -- CPU_WriteMem(4 bytes @ 0xE000EDF0) -- CPU is running -- CPU_WriteMem(4 bytes @ 0xE000EDFC)Reset: Halt core after reset via DEMCR.VC_CORERESET. >0x35 TIF>Reset: Reset device via AIRCR.SYSRESETREQ. -- CPU is running -- CPU_WriteMem(4 bytes @ 0xE000ED0C) >0x0D TIF> >0x28 TIF> -- CPU_ReadMem(4 bytes @ 0xE000EDF0) -- CPU_ReadMem(4 bytes @ 0xE000EDF0) -- CPU is running -- CPU_WriteMem(4 bytes @ 0xE000EDF0) -- CPU is running
 -- CPU_WriteMem(4 bytes @ 0xE000EDFC) -- CPU_ReadMem(4 bytes @ 0xE000EDF0) -- CPU_WriteMem(4 bytes @ 0xE0002000) -- CPU_ReadMem(4 bytes @ 0xE000EDFC) -- CPU_ReadMem(4 bytes @ 0xE0001000) (0067ms, 181210ms total)
T3C14 22764:430 JLINK_ReadReg(R15 (PC))  returns 0x0800019C (0000ms, 181210ms total)
T3C14 22764:430 JLINK_ReadReg(XPSR)  returns 0x01000000 (0000ms, 181210ms total)
T3C14 22764:430 JLINK_Halt()  returns 0x00 (0000ms, 181210ms total)
T3C14 22764:430 JLINK_ReadMemU32(0xE000EDF0, 0x0001 Items, ...) -- CPU_ReadMem(4 bytes @ 0xE000EDF0) - Data: 03 00 03 00  returns 0x01 (0000ms, 181210ms total)
T3C14 22764:430 JLINK_WriteU32(0xE000EDF0, 0xA05F0003) -- CPU_WriteMem(4 bytes @ 0xE000EDF0)  returns 0x00 (0001ms, 181211ms total)
T3C14 22764:431 JLINK_WriteU32(0xE000EDFC, 0x01000000) -- CPU_WriteMem(4 bytes @ 0xE000EDFC)  returns 0x00 (0001ms, 181212ms total)
T3C14 22764:432 JLINK_GetHWStatus(...)  returns 0x00 (0000ms, 181212ms total)
T3C14 22764:432 JLINK_GetNumBPUnits(Type = 0xFFFFFF00)  returns 0x06 (0000ms, 181212ms total)
T3C14 22764:432 JLINK_GetNumBPUnits(Type = 0xF0)  returns 0x2000 (0001ms, 181213ms total)
T3C14 22764:433 JLINK_GetNumWPUnits()  returns 0x04 (0000ms, 181213ms total)
T3C14 22764:433 JLINK_GetSpeed()  returns 0x1388 (0000ms, 181213ms total)
T3C14 22764:433 JLINK_ReadMemU32(0xE000E004, 0x0001 Items, ...) -- CPU_ReadMem(4 bytes @ 0xE000E004) - Data: 02 00 00 00  returns 0x01 (0000ms, 181213ms total)
T3C14 22764:433 JLINK_ReadMemU32(0xE000E004, 0x0001 Items, ...) -- CPU_ReadMem(4 bytes @ 0xE000E004) - Data: 02 00 00 00  returns 0x01 (0001ms, 181214ms total)
T3C14 22764:434 JLINK_WriteMemEx(0xE0001000, 0x001C Bytes, ..., Flags = 0x02000004) - Data: 01 00 00 00 00 00 00 00 00 00 00 00 00 00 00 00 ... -- CPU_WriteMem(28 bytes @ 0xE0001000)  returns 0x1C (0002ms, 181216ms total)
T3C14 22764:436 JLINK_ReadReg(R15 (PC))  returns 0x0800019C (0000ms, 181216ms total)
T3C14 22764:436 JLINK_ReadReg(XPSR)  returns 0x01000000 (0000ms, 181216ms total)
T3C14 22764:436 JLINK_WriteU32(0xE0041FB0, 0xC5ACCE55) -- CPU_WriteMem(4 bytes @ 0xE0041FB0)  returns 0x00 (0001ms, 181217ms total)
T3C14 22764:437 JLINK_ReadMemU32(0xE0041000, 0x0001 Items, ...) -- CPU_ReadMem(4 bytes @ 0xE0041000) - Data: 11 04 00 00  returns 0x01 (0000ms, 181217ms total)
T3C14 22764:437 JLINK_WriteU32(0xE0041000, 0x00000410) -- CPU_WriteMem(4 bytes @ 0xE0041000)  returns 0x00 (0001ms, 181218ms total)
T3C14 22764:444 JLINK_SWO_Control(JLINKARM_SWO_CMD_GET_SPEED_INFO, ...)  returns 0x00 (0000ms, 181218ms total)
T3C14 22764:444 JLINK_SWO_Control(JLINKARM_SWO_CMD_STOP, ...)  returns 0x00 (0000ms, 181218ms total)
T3C14 22764:444 JLINK_SWO_Control(JLINKARM_SWO_CMD_START, ...) -- UART -- 6000000bps -- CPU_ReadMem(4 bytes @ 0xE0042004) -- CPU_WriteMem(4 bytes @ 0xE0042004)  returns 0x00 (0001ms, 181219ms total)
T3C14 22764:446 JLINK_WriteU32(0xE0040004, 0x00000001) -- CPU_WriteMem(4 bytes @ 0xE0040004)  returns 0x00 (0000ms, 181219ms total)
T3C14 22764:446 JLINK_WriteU32(0xE0040010, 0x0000001B)  returns 0x00 (0000ms, 181219ms total)
T3C14 22764:446 JLINK_WriteU32(0xE00400F0, 0x00000002)  returns 0x00 (0000ms, 181219ms total)
T3C14 22764:446 JLINK_WriteU32(0xE0040304, 0x00000000)  returns 0x00 (0000ms, 181219ms total)
T3C14 22764:446 JLINK_WriteU32(0xE0000FB0, 0xC5ACCE55) -- CPU_WriteMem(4 bytes @ 0xE0000FB0)  returns 0x00 (0000ms, 181219ms total)
T3C14 22764:446 JLINK_WriteU32(0xE0000E80, 0x0001030D)  returns 0x00 (0000ms, 181219ms total)
T3C14 22764:446 JLINK_WriteU32(0xE0000E00, 0xFFFFFFFF)  returns 0x00 (0000ms, 181219ms total)
T3C14 22764:446 JLINK_WriteU32(0xE0000E40, 0x0000000F)  returns 0x00 (0000ms, 181219ms total)
T3C14 22764:446 JLINK_WriteU32(0xE0001000, 0x003F1A1F)  returns 0x00 (0000ms, 181219ms total)
T3C14 22764:470 JLINK_ReadMemEx(0xE0001004, 0x0004 Bytes, ..., Flags = 0x02000000) - Data: 00 00 00 00  returns 0x04 (0000ms, 181219ms total)
T3C14 22764:507 JLINK_WriteMemEx(0x08000000, 0x1000 Bytes, ..., Flags = 0x02000000) - Data: 40 BB 00 20 9D 01 00 08 C9 69 00 08 45 43 00 08 ...  returns 0x1000 (0001ms, 181220ms total)
T3C14 22764:508 JLINK_WriteMemEx(0x08001000, 0x1000 Bytes, ..., Flags = 0x02000000) - Data: 08 27 25 73 CC E7 00 00 58 0E 00 20 9E 0E 00 20 ...  returns 0x1000 (0000ms, 181220ms total)
T3C14 22764:509 JLINK_WriteMemEx(0x08002000, 0x1000 Bytes, ..., Flags = 0x02000000) - Data: 14 BF 88 F8 04 B0 88 F8 04 A0 10 F0 02 0F 18 BF ...  returns 0x1000 (0000ms, 181220ms total)
T3C14 22764:509 JLINK_WriteMemEx(0x08003000, 0x1000 Bytes, ..., Flags = 0x02000000) - Data: 37 70 86 F8 00 80 00 24 70 7B 00 28 84 BF 4F F4 ...  returns 0x1000 (0000ms, 181220ms total)
T3C14 22764:510 JLINK_WriteMemEx(0x08004000, 0x1000 Bytes, ..., Flags = 0x02000000) - Data: 31 FE 01 22 D1 02 20 46 FF F7 A2 FE 01 21 04 20 ...  returns 0x1000 (0000ms, 181220ms total)
T3C14 22764:510 JLINK_WriteMemEx(0x08005000, 0x1000 Bytes, ..., Flags = 0x02000000) - Data: 03 DA 84 F8 03 80 E7 80 27 E0 B5 F8 A8 05 10 B1 ...  returns 0x1000 (0000ms, 181220ms total)
T3C14 22764:511 JLINK_WriteMemEx(0x08006000, 0x1000 Bytes, ..., Flags = 0x02000000) - Data: 80 ED 4A 0A 9F ED A0 2A 80 ED 4B 2A B7 EE 00 2A ...  returns 0x1000 (0000ms, 181220ms total)
T3C14 22764:511 JLINK_WriteMemEx(0x08007000, 0x1000 Bytes, ..., Flags = 0x02000000) - Data: 28 BF D6 F8 10 90 48 D3 08 2C 0E BF 09 F1 06 03 ...  returns 0x1000 (0000ms, 181220ms total)
T3C14 22764:512 JLINK_WriteMemEx(0x08008000, 0x1000 Bytes, ..., Flags = 0x02000000) - Data: 21 EE 00 0A 90 ED 0F 1A 20 EE 01 0A 81 ED 09 0A ...  returns 0x1000 (0000ms, 181220ms total)
T3C14 22764:512 JLINK_WriteMemEx(0x08009000, 0x1000 Bytes, ..., Flags = 0x02000000) - Data: 30 46 FA F7 7C FE 05 22 11 46 30 46 FA F7 77 FE ...  returns 0x1000 (0000ms, 181220ms total)
T3C14 22764:513 JLINK_WriteMemEx(0x0800A000, 0x1000 Bytes, ..., Flags = 0x02000000) - Data: F9 F7 BA FE BD F8 00 00 30 40 14 4E AD F8 00 00 ...  returns 0x1000 (0000ms, 181220ms total)
T3C14 22764:513 JLINK_WriteMemEx(0x0800B000, 0x1000 Bytes, ..., Flags = 0x02000000) - Data: 2C D9 3D 4F 4F F4 B0 58 4F F4 D0 59 41 F2 01 6A ...  returns 0x1000 (0000ms, 181220ms total)
T3C14 22764:514 JLINK_WriteMemEx(0x0800C000, 0x1000 Bytes, ..., Flags = 0x02000000) - Data: B3 01 00 20 B4 01 00 20 B5 01 00 20 20 00 00 20 ...  returns 0x1000 (0000ms, 181220ms total)
T3C14 22764:514 JLINK_WriteMemEx(0x0800D000, 0x0C28 Bytes, ..., Flags = 0x02000000) - Data: 15 EF C3 BE CA 7B CF BE 80 E8 DA BE 75 33 E6 BE ...  returns 0xC28 (0000ms, 181220ms total)
T3C14 22764:571 JLINK_SetResetType(JLINKARM_CM3_RESET_TYPE_NORMAL)  returns JLINKARM_CM3_RESET_TYPE_NORMAL (0000ms, 181220ms total)
T3C14 22764:571 JLINK_Reset() -- CPU_ReadMem(4 bytes @ 0xE000ED90) -- CPU_ReadMem(4 bytes @ 0xE000ED94) -- -------------------------------------- -- Start of determining dirty areas in flash cache -- End of determining dirty areas -- Start of preparing flash programming -- Calculating RAM usage -- RAM usage = 3868 Bytes -- Preserving CPU registers -- Preparing memory -- Preparing target -- Downloading RAMCode -- Checking target RAM -- Preparing RAMCode -- End of preparing flash programming
 -- CPU is running at 110000 kHz. -- Start of comparing flash -- CRC check was estimated as fastest method -- Comparing range 0x8000000 - 0x800FFFF (4 Sectors, 64 KB), using multi-block CRC calculation -- All CRCs match -- Comparing range 0x8000000 - 0x800FFFF (4 Sectors, 64 KB), using alternative multi-block CRC calculation -- All CRCs match -- End of comparing flash -- Start of erasing sectors -- End of erasing sectors -- Start of flash programming -- End of flash programming
 -- Start of verifying flash -- End of verifying flash -- Start of restoring -- Restoring RAMCode -- Restore target -- Restore memory -- Restoring CPU registers -- End of restoring -- Bank 0 @ 0x08000000: Skipped. Contents already match -- Bank 0 @ 0x08000000: Skipped. Contents already match -- CPU_WriteMem(4 bytes @ 0xE0002000) -- CPU_ReadMem(4 bytes @ 0xE0002008) -- CPU_WriteMem(4 bytes @ 0xE000EDF4) -- CPU_ReadMem(4 bytes @ 0xE000EDF8) -- CPU_WriteMem(4 bytes @ 0xE0002008)
 -- CPU_WriteMem(4 bytes @ 0xE000EDF8) -- CPU_WriteMem(4 bytes @ 0xE000EDF4) -- CPU_WriteMem(4 bytes @ 0xE000EDF0) -- CPU_WriteMem(4 bytes @ 0xE000EDF0) -- CPU_ReadMem(4 bytes @ 0xE000EDF0) -- CPU_WriteMem(4 bytes @ 0xE000EDF0) -- CPU_WriteMem(4 bytes @ 0xE0002008) -- CPU_WriteMem(4 bytes @ 0xE000EDF8) -- CPU_WriteMem(4 bytes @ 0xE000EDF4) -- CPU_WriteMem(4 bytes @ 0xE000EDF0) -- CPU_WriteMem(4 bytes @ 0xE000EDFC)Reset: Halt core after reset via DEMCR.VC_CORERESET. >0x35 TIF>
Reset: Reset device via AIRCR.SYSRESETREQ. -- CPU_WriteMem(4 bytes @ 0xE000ED0C) >0x0D TIF> >0x28 TIF> -- CPU_ReadMem(4 bytes @ 0xE000EDF0) -- CPU_ReadMem(4 bytes @ 0xE000EDF0) -- CPU_WriteMem(4 bytes @ 0xE000EDF0) -- CPU_WriteMem(4 bytes @ 0xE000EDFC) -- CPU_ReadMem(4 bytes @ 0xE000EDF0) -- CPU_WriteMem(4 bytes @ 0xE0002000) -- CPU_ReadMem(4 bytes @ 0xE000EDFC) -- CPU_ReadMem(4 bytes @ 0xE0001000) -- CPU_ReadMem(4 bytes @ 0xE0042004) (0135ms, 181355ms total)
T3C14 22764:706 JLINK_WriteU32(0xE000EDFC, 0x01000000) -- CPU_WriteMem(4 bytes @ 0xE000EDFC)  returns 0x00 (0000ms, 181355ms total)
T3C14 22764:707 JLINK_ReadReg(R15 (PC))  returns 0x0800019C (0000ms, 181355ms total)
T3C14 22764:707 JLINK_ReadReg(XPSR)  returns 0x01000000 (0000ms, 181355ms total)
T3C14 22764:713 JLINK_ReadMemEx(0x0800019C, 0x003C Bytes, ..., Flags = 0x02000000) -- Read from flash cache (60 bytes @ 0x0800019C) - Data: 07 48 80 47 07 48 80 47 07 48 00 47 FE E7 FE E7 ...  returns 0x3C (0000ms, 181355ms total)
T3C14 22764:830 JLINK_WriteU32(0xE0001008, 0x00000000)  returns 0x00 (0000ms, 181355ms total)
T3C14 22764:830 JLINK_WriteU32(0xE000100C, 0x00000000)  returns 0x00 (0000ms, 181355ms total)
T3C14 22764:830 JLINK_WriteU32(0xE0001010, 0x00000000)  returns 0x00 (0000ms, 181355ms total)
T3C14 22764:830 JLINK_WriteU32(0xE0001014, 0x00000000)  returns 0x00 (0000ms, 181355ms total)
T3C14 22764:830 JLINK_WriteU32(0xE0001018, 0x00000000)  returns 0x00 (0000ms, 181355ms total)
T3C14 22764:830 JLINK_ReadMemU32(0xE0001008, 0x0001 Items, ...) - Data: 00 00 00 00  returns 0x01 (0000ms, 181355ms total)
T3C14 22764:830 JLINK_ReadMemU32(0xE000100C, 0x0001 Items, ...) - Data: 00 00 00 00  returns 0x01 (0000ms, 181355ms total)
T3C14 22764:830 JLINK_ReadMemU32(0xE0001010, 0x0001 Items, ...) - Data: 00 00 00 00  returns 0x01 (0000ms, 181355ms total)
T3C14 22764:830 JLINK_ReadMemU32(0xE0001014, 0x0001 Items, ...) - Data: 00 00 00 00  returns 0x01 (0000ms, 181355ms total)
T3C14 22764:830 JLINK_ReadMemU32(0xE0001018, 0x0001 Items, ...) - Data: 00 00 00 00  returns 0x01 (0000ms, 181355ms total)
T3C14 22764:830 JLINK_ReadMemU32(0xE0001008, 0x0001 Items, ...) - Data: 00 00 00 00  returns 0x01 (0000ms, 181355ms total)
T3C14 22764:830 JLINK_ReadMemU32(0xE000100C, 0x0001 Items, ...) - Data: 00 00 00 00  returns 0x01 (0000ms, 181355ms total)
T3C14 22764:830 JLINK_ReadMemU32(0xE0001010, 0x0001 Items, ...) - Data: 00 00 00 00  returns 0x01 (0000ms, 181355ms total)
T3C14 22764:830 JLINK_ReadMemU32(0xE0001014, 0x0001 Items, ...) - Data: 00 00 00 00  returns 0x01 (0000ms, 181355ms total)
T3C14 22764:830 JLINK_ReadMemU32(0xE0001018, 0x0001 Items, ...) - Data: 00 00 00 00  returns 0x01 (0000ms, 181355ms total)
T3C14 22766:143 JLINK_ReadReg(R0)  returns 0x00000000 (0000ms, 181355ms total)
T3C14 22766:143 JLINK_ReadReg(R1)  returns 0x00000000 (0000ms, 181355ms total)
T3C14 22766:143 JLINK_ReadReg(R2)  returns 0x00000000 (0000ms, 181355ms total)
T3C14 22766:143 JLINK_ReadReg(R3)  returns 0x00000000 (0000ms, 181355ms total)
T3C14 22766:143 JLINK_ReadReg(R4)  returns 0x00000000 (0000ms, 181355ms total)
T3C14 22766:143 JLINK_ReadReg(R5)  returns 0x00000000 (0000ms, 181355ms total)
T3C14 22766:143 JLINK_ReadReg(R6)  returns 0x00000000 (0000ms, 181355ms total)
T3C14 22766:143 JLINK_ReadReg(R7)  returns 0x00000000 (0000ms, 181355ms total)
T3C14 22766:143 JLINK_ReadReg(R8)  returns 0x00000000 (0000ms, 181355ms total)
T3C14 22766:143 JLINK_ReadReg(R9)  returns 0x00000000 (0000ms, 181355ms total)
T3C14 22766:143 JLINK_ReadReg(R10)  returns 0x00000000 (0000ms, 181355ms total)
T3C14 22766:143 JLINK_ReadReg(R11)  returns 0x00000000 (0000ms, 181355ms total)
T3C14 22766:143 JLINK_ReadReg(R12)  returns 0x00000000 (0000ms, 181355ms total)
T3C14 22766:143 JLINK_ReadReg(R13 (SP))  returns 0x2000BB40 (0000ms, 181355ms total)
T3C14 22766:143 JLINK_ReadReg(R14)  returns 0xFFFFFFFF (0000ms, 181355ms total)
T3C14 22766:144 JLINK_ReadReg(R15 (PC))  returns 0x0800019C (0000ms, 181356ms total)
T3C14 22766:144 JLINK_ReadReg(XPSR)  returns 0x01000000 (0000ms, 181356ms total)
T3C14 22766:144 JLINK_ReadReg(MSP)  returns 0x2000BB40 (0000ms, 181356ms total)
T3C14 22766:144 JLINK_ReadReg(PSP)  returns 0x00000000 (0000ms, 181356ms total)
T3C14 22766:144 JLINK_ReadReg(CFBP)  returns 0x00000000 (0000ms, 181356ms total)
T3C14 22766:144 JLINK_ReadReg(FPSCR)  returns 0x00000000 (0002ms, 181358ms total)
T3C14 22766:146 JLINK_ReadReg(FPS0)  returns 0x00000000 (0000ms, 181358ms total)
T3C14 22766:146 JLINK_ReadReg(FPS1)  returns 0x00000000 (0000ms, 181358ms total)
T3C14 22766:146 JLINK_ReadReg(FPS2)  returns 0x00000000 (0000ms, 181358ms total)
T3C14 22766:146 JLINK_ReadReg(FPS3)  returns 0x00000000 (0000ms, 181358ms total)
T3C14 22766:146 JLINK_ReadReg(FPS4)  returns 0x00000000 (0000ms, 181358ms total)
T3C14 22766:146 JLINK_ReadReg(FPS5)  returns 0x00000000 (0000ms, 181358ms total)
T3C14 22766:146 JLINK_ReadReg(FPS6)  returns 0x00000000 (0000ms, 181358ms total)
T3C14 22766:146 JLINK_ReadReg(FPS7)  returns 0x00000000 (0001ms, 181359ms total)
T3C14 22766:147 JLINK_ReadReg(FPS8)  returns 0x00000000 (0000ms, 181359ms total)
T3C14 22766:147 JLINK_ReadReg(FPS9)  returns 0x00000000 (0000ms, 181359ms total)
T3C14 22766:147 JLINK_ReadReg(FPS10)  returns 0x00000000 (0000ms, 181359ms total)
T3C14 22766:147 JLINK_ReadReg(FPS11)  returns 0x00000000 (0000ms, 181359ms total)
T3C14 22766:147 JLINK_ReadReg(FPS12)  returns 0x00000000 (0000ms, 181359ms total)
T3C14 22766:147 JLINK_ReadReg(FPS13)  returns 0x00000000 (0000ms, 181359ms total)
T3C14 22766:147 JLINK_ReadReg(FPS14)  returns 0x00000000 (0000ms, 181359ms total)
T3C14 22766:147 JLINK_ReadReg(FPS15)  returns 0x00000000 (0000ms, 181359ms total)
T3C14 22766:147 JLINK_ReadReg(FPS16)  returns 0x00000000 (0000ms, 181359ms total)
T3C14 22766:147 JLINK_ReadReg(FPS17)  returns 0x00000000 (0000ms, 181359ms total)
T3C14 22766:147 JLINK_ReadReg(FPS18)  returns 0x00000000 (0000ms, 181359ms total)
T3C14 22766:147 JLINK_ReadReg(FPS19)  returns 0x00000000 (0000ms, 181359ms total)
T3C14 22766:147 JLINK_ReadReg(FPS20)  returns 0x00000000 (0000ms, 181359ms total)
T3C14 22766:147 JLINK_ReadReg(FPS21)  returns 0x00000000 (0000ms, 181359ms total)
T3C14 22766:147 JLINK_ReadReg(FPS22)  returns 0x00000000 (0000ms, 181359ms total)
T3C14 22766:147 JLINK_ReadReg(FPS23)  returns 0x00000000 (0000ms, 181359ms total)
T3C14 22766:147 JLINK_ReadReg(FPS24)  returns 0x00000000 (0000ms, 181359ms total)
T3C14 22766:147 JLINK_ReadReg(FPS25)  returns 0x00000000 (0000ms, 181359ms total)
T3C14 22766:147 JLINK_ReadReg(FPS26)  returns 0x00000000 (0000ms, 181359ms total)
T3C14 22766:147 JLINK_ReadReg(FPS27)  returns 0x00000000 (0000ms, 181359ms total)
T3C14 22766:147 JLINK_ReadReg(FPS28)  returns 0x00000000 (0000ms, 181359ms total)
T3C14 22766:147 JLINK_ReadReg(FPS29)  returns 0x00000000 (0000ms, 181359ms total)
T3C14 22766:147 JLINK_ReadReg(FPS30)  returns 0x00000000 (0000ms, 181359ms total)
T3C14 22766:147 JLINK_ReadReg(FPS31)  returns 0x00000000 (0000ms, 181359ms total)
T3C14 22766:160 JLINK_ReadMemEx(0x20000189, 0x0001 Bytes, ..., Flags = 0x02000000) -- CPU_ReadMem(64 bytes @ 0x20000180) -- Updating C cache (64 bytes @ 0x20000180) -- Read from C cache (1 bytes @ 0x20000189) - Data: 60  returns 0x01 (0001ms, 181360ms total)
T3C14 22766:172 JLINK_ReadMemEx(0x00000000, 0x0002 Bytes, ..., Flags = 0x02000000) -- CPU_ReadMem(4 bytes @ 0x00000004) -- Read from flash cache (2 bytes @ 0x08000000) - Data: 40 BB  returns 0x02 (0000ms, 181360ms total)
T3C14 22766:182 JLINK_ReadMemEx(0x200001C8, 0x0004 Bytes, ..., Flags = 0x02000000) -- CPU_ReadMem(64 bytes @ 0x200001C0) -- Updating C cache (64 bytes @ 0x200001C0) -- Read from C cache (4 bytes @ 0x200001C8) - Data: 18 98 46 69  returns 0x04 (0001ms, 181361ms total)
T3C14 22766:185 JLINK_ReadMemEx(0x00000000, 0x0004 Bytes, ..., Flags = 0x02000000) -- Read from flash cache (4 bytes @ 0x08000000) - Data: 40 BB 00 20  returns 0x04 (0000ms, 181361ms total)
T3C14 22766:193 JLINK_ReadMemEx(0x20002BA0, 0x0004 Bytes, ..., Flags = 0x02000000) -- CPU_ReadMem(64 bytes @ 0x20002B80) -- Updating C cache (64 bytes @ 0x20002B80) -- Read from C cache (4 bytes @ 0x20002BA0) - Data: 29 83 05 44  returns 0x04 (0001ms, 181362ms total)
T3C14 22766:197 JLINK_ReadMemEx(0x20002DCC, 0x0004 Bytes, ..., Flags = 0x02000000) -- CPU_ReadMem(64 bytes @ 0x20002DC0) -- Updating C cache (64 bytes @ 0x20002DC0) -- Read from C cache (4 bytes @ 0x20002DCC) - Data: 98 D7 2D 43  returns 0x04 (0000ms, 181362ms total)
T3C14 22766:205 JLINK_ReadMemEx(0x200001E4, 0x0004 Bytes, ..., Flags = 0x02000000) -- Read from C cache (4 bytes @ 0x200001E4) - Data: FF F7 22 FF  returns 0x04 (0000ms, 181362ms total)
T3C14 22766:210 JLINK_ReadMemEx(0x200001A8, 0x0001 Bytes, ..., Flags = 0x02000000) -- Read from C cache (1 bytes @ 0x200001A8) - Data: F7  returns 0x01 (0000ms, 181362ms total)
T3C14 22766:214 JLINK_ReadMemEx(0x200001A7, 0x0001 Bytes, ..., Flags = 0x02000000) -- Read from C cache (1 bytes @ 0x200001A7) - Data: BD  returns 0x01 (0000ms, 181362ms total)
T3C14 22766:217 JLINK_ReadMemEx(0x200001A6, 0x0001 Bytes, ..., Flags = 0x02000000) -- Read from C cache (1 bytes @ 0x200001A6) - Data: 0F  returns 0x01 (0000ms, 181362ms total)
T3C14 22766:220 JLINK_ReadMemEx(0x200001A5, 0x0001 Bytes, ..., Flags = 0x02000000) -- Read from C cache (1 bytes @ 0x200001A5) - Data: 27  returns 0x01 (0000ms, 181362ms total)
T3C14 22766:223 JLINK_ReadMemEx(0x200001A4, 0x0001 Bytes, ..., Flags = 0x02000000) -- Read from C cache (1 bytes @ 0x200001A4) - Data: FF  returns 0x01 (0000ms, 181362ms total)
T3C14 22766:226 JLINK_ReadMemEx(0x20002BD4, 0x0004 Bytes, ..., Flags = 0x02000000) -- CPU_ReadMem(64 bytes @ 0x20002BC0) -- Updating C cache (64 bytes @ 0x20002BC0) -- Read from C cache (4 bytes @ 0x20002BD4) - Data: 55 00 00 00  returns 0x04 (0001ms, 181363ms total)
T3C14 22766:230 JLINK_ReadMemEx(0x200001C4, 0x0004 Bytes, ..., Flags = 0x02000000) -- Read from C cache (4 bytes @ 0x200001C4) - Data: 03 90 02 90  returns 0x04 (0000ms, 181363ms total)
T3C14 22766:232 JLINK_ReadMemEx(0x200001BA, 0x0002 Bytes, ..., Flags = 0x02000000) -- Read from C cache (2 bytes @ 0x200001BA) - Data: C9 68  returns 0x02 (0000ms, 181363ms total)
T3C14 22766:251 JLINK_WriteMemEx(0xE0001050, 0x000C Bytes, ..., Flags = 0x02000004) - Data: 3C 20 01 40 02 00 00 00 0F 00 00 00 -- CPU_WriteMem(4 bytes @ 0xE0001008) -- CPU_WriteMem(4 bytes @ 0xE000100C) -- CPU_WriteMem(4 bytes @ 0xE0001010) -- CPU_WriteMem(4 bytes @ 0xE0001014) -- CPU_WriteMem(4 bytes @ 0xE0001018) -- CPU_WriteMem(12 bytes @ 0xE0001050)  returns 0x0C (0001ms, 181364ms total)
T3C14 22766:253 JLINK_ReadMemEx(0x4001203C, 0x0004 Bytes, ..., Flags = 0x02000000) -- CPU_ReadMem(4 bytes @ 0x4001203C) - Data: 00 00 00 00  returns 0x04 (0000ms, 181364ms total)
T0C28 22766:290 JLINK_ReadMemEx(0x0800019C, 0x0002 Bytes, ..., Flags = 0x02000000) -- Read from flash cache (2 bytes @ 0x0800019C) - Data: 07 48  returns 0x02 (0000ms, 181364ms total)
T0C28 22766:290 JLINK_SetBPEx(Addr = 0x0800BEC8, Type = 0xFFFFFFF2)  returns 0x00000001 (0000ms, 181364ms total)
T0C28 22766:290 JLINK_ReadMemU32(0xE0001004, 0x0001 Items, ...) - Data: 00 00 00 00  returns 0x01 (0000ms, 181364ms total)
T0C28 22766:290 JLINK_WriteU32(0xE0001004, 0x000003FF)  returns 0x00 (0000ms, 181364ms total)
T0C28 22766:290 JLINK_WriteU32(0xE0001000, 0x003F1A1F)  returns 0x00 (0000ms, 181364ms total)
T0C28 22766:290 JLINK_WriteU32(0xE0000E80, 0x0001030F)  returns 0x00 (0000ms, 181364ms total)
T0C28 22766:290 JLINK_SWO_Control(JLINKARM_SWO_CMD_GET_NUM_BYTES, ...)  returns 0x00 (0000ms, 181364ms total)
T0C28 22766:291 JLINK_Go() -- CPU_WriteMem(4 bytes @ 0xE0002000) -- CPU_WriteMem(4 bytes @ 0xE0001000) -- CPU_ReadMem(4 bytes @ 0xE0001000) -- CPU_WriteMem(4 bytes @ 0xE0000E80) -- CPU_WriteMem(4 bytes @ 0xE0002008) -- CPU_WriteMem(4 bytes @ 0xE000200C) -- CPU_WriteMem(4 bytes @ 0xE0002010) -- CPU_WriteMem(4 bytes @ 0xE0002014) -- CPU_WriteMem(4 bytes @ 0xE0002018) -- CPU_WriteMem(4 bytes @ 0xE000201C) -- CPU_WriteMem(4 bytes @ 0xE0001004) (0002ms, 181366ms total)
T0C28 22766:394 JLINK_SWO_Read(..., Offset = 0x00, NumBytes = 0x400000) - Data:  NumBytesRead = 0x00 (0000ms, 181366ms total)
T0C28 22766:396 JLINK_SWO_Control(JLINKARM_SWO_CMD_FLUSH, ...)  returns 0x00 (0000ms, 181366ms total)
T0C28 22766:396 JLINK_IsHalted()  returns TRUE (0001ms, 181367ms total)
T0C28 22766:397 JLINK_Halt()  returns 0x00 (0000ms, 181366ms total)
T0C28 22766:397 JLINK_IsHalted()  returns TRUE (0001ms, 181367ms total)
T0C28 22766:398 JLINK_IsHalted()  returns TRUE (0000ms, 181366ms total)
T0C28 22766:398 JLINK_IsHalted()  returns TRUE (0000ms, 181366ms total)
T0C28 22766:398 JLINK_ReadReg(R15 (PC))  returns 0x0800BEC8 (0000ms, 181366ms total)
T0C28 22766:398 JLINK_ReadReg(XPSR)  returns 0x61000000 (0000ms, 181366ms total)
T0C28 22766:398 JLINK_SWO_Read(..., Offset = 0x00, NumBytes = 0x400000) - Data:  NumBytesRead = 0x00 (0000ms, 181366ms total)
T0C28 22766:400 JLINK_SWO_Control(JLINKARM_SWO_CMD_FLUSH, ...)  returns 0x00 (0000ms, 181366ms total)
T0C28 22766:400 JLINK_ClrBPEx(BPHandle = 0x00000001)  returns 0x00 (0000ms, 181366ms total)
T0C28 22766:400 JLINK_ReadMemU32(0xE000ED30, 0x0001 Items, ...) -- CPU_ReadMem(4 bytes @ 0xE000ED30) - Data: 02 00 00 00  returns 0x01 (0000ms, 181366ms total)
T0C28 22766:400 JLINK_ReadMemU32(0xE0001028, 0x0001 Items, ...) -- CPU_ReadMem(4 bytes @ 0xE0001028) - Data: 00 00 00 00  returns 0x01 (0000ms, 181366ms total)
T0C28 22766:401 JLINK_ReadMemU32(0xE0001038, 0x0001 Items, ...) -- CPU_ReadMem(4 bytes @ 0xE0001038) - Data: 00 02 00 00  returns 0x01 (0000ms, 181366ms total)
T0C28 22766:401 JLINK_ReadMemU32(0xE0001048, 0x0001 Items, ...) -- CPU_ReadMem(4 bytes @ 0xE0001048) - Data: 00 00 00 00  returns 0x01 (0000ms, 181366ms total)
T0C28 22766:401 JLINK_ReadReg(R0)  returns 0x0800BEC9 (0000ms, 181366ms total)
T0C28 22766:401 JLINK_ReadReg(R1)  returns 0x2000BB40 (0000ms, 181366ms total)
T0C28 22766:401 JLINK_ReadReg(R2)  returns 0x00000000 (0000ms, 181366ms total)
T0C28 22766:401 JLINK_ReadReg(R3)  returns 0x0800B2ED (0000ms, 181366ms total)
T0C28 22766:401 JLINK_ReadReg(R4)  returns 0x0800D6F8 (0000ms, 181366ms total)
T0C28 22766:401 JLINK_ReadReg(R5)  returns 0x0800D6F8 (0000ms, 181366ms total)
T0C28 22766:401 JLINK_ReadReg(R6)  returns 0x00000000 (0000ms, 181366ms total)
T0C28 22766:401 JLINK_ReadReg(R7)  returns 0x00000000 (0000ms, 181366ms total)
T0C28 22766:401 JLINK_ReadReg(R8)  returns 0x00000000 (0000ms, 181366ms total)
T0C28 22766:401 JLINK_ReadReg(R9)  returns 0x00000000 (0001ms, 181367ms total)
T0C28 22766:402 JLINK_ReadReg(R10)  returns 0x00000000 (0000ms, 181367ms total)
T0C28 22766:402 JLINK_ReadReg(R11)  returns 0x00000000 (0000ms, 181367ms total)
T0C28 22766:402 JLINK_ReadReg(R12)  returns 0x40023804 (0000ms, 181367ms total)
T0C28 22766:402 JLINK_ReadReg(R13 (SP))  returns 0x2000BB40 (0000ms, 181367ms total)
T0C28 22766:402 JLINK_ReadReg(R14)  returns 0x08000475 (0000ms, 181367ms total)
T0C28 22766:402 JLINK_ReadReg(R15 (PC))  returns 0x0800BEC8 (0000ms, 181367ms total)
T0C28 22766:402 JLINK_ReadReg(XPSR)  returns 0x61000000 (0000ms, 181367ms total)
T0C28 22766:402 JLINK_ReadReg(MSP)  returns 0x2000BB40 (0000ms, 181367ms total)
T0C28 22766:402 JLINK_ReadReg(PSP)  returns 0x00000000 (0000ms, 181367ms total)
T0C28 22766:402 JLINK_ReadReg(CFBP)  returns 0x00000000 (0000ms, 181367ms total)
T0C28 22766:402 JLINK_ReadReg(FPSCR)  returns 0x00000000 (0003ms, 181370ms total)
T0C28 22766:405 JLINK_ReadReg(FPS0)  returns 0x00000000 (0000ms, 181370ms total)
T0C28 22766:405 JLINK_ReadReg(FPS1)  returns 0x00000000 (0000ms, 181370ms total)
T0C28 22766:405 JLINK_ReadReg(FPS2)  returns 0x00000000 (0000ms, 181370ms total)
T0C28 22766:405 JLINK_ReadReg(FPS3)  returns 0x00000000 (0000ms, 181370ms total)
T0C28 22766:405 JLINK_ReadReg(FPS4)  returns 0x00000000 (0000ms, 181370ms total)
T0C28 22766:405 JLINK_ReadReg(FPS5)  returns 0x00000000 (0000ms, 181370ms total)
T0C28 22766:405 JLINK_ReadReg(FPS6)  returns 0x00000000 (0000ms, 181370ms total)
T0C28 22766:405 JLINK_ReadReg(FPS7)  returns 0x00000000 (0000ms, 181370ms total)
T0C28 22766:405 JLINK_ReadReg(FPS8)  returns 0x00000000 (0000ms, 181370ms total)
T0C28 22766:405 JLINK_ReadReg(FPS9)  returns 0x00000000 (0000ms, 181370ms total)
T0C28 22766:405 JLINK_ReadReg(FPS10)  returns 0x00000000 (0000ms, 181370ms total)
T0C28 22766:405 JLINK_ReadReg(FPS11)  returns 0x00000000 (0000ms, 181370ms total)
T0C28 22766:405 JLINK_ReadReg(FPS12)  returns 0x00000000 (0000ms, 181370ms total)
T0C28 22766:405 JLINK_ReadReg(FPS13)  returns 0x00000000 (0000ms, 181370ms total)
T0C28 22766:405 JLINK_ReadReg(FPS14)  returns 0x00000000 (0000ms, 181370ms total)
T0C28 22766:405 JLINK_ReadReg(FPS15)  returns 0x00000000 (0000ms, 181370ms total)
T0C28 22766:405 JLINK_ReadReg(FPS16)  returns 0x00000000 (0000ms, 181370ms total)
T0C28 22766:405 JLINK_ReadReg(FPS17)  returns 0x00000000 (0000ms, 181370ms total)
T0C28 22766:405 JLINK_ReadReg(FPS18)  returns 0x00000000 (0000ms, 181370ms total)
T0C28 22766:406 JLINK_ReadReg(FPS19)  returns 0x00000000 (0000ms, 181371ms total)
T0C28 22766:406 JLINK_ReadReg(FPS20)  returns 0x00000000 (0000ms, 181371ms total)
T0C28 22766:406 JLINK_ReadReg(FPS21)  returns 0x00000000 (0000ms, 181371ms total)
T0C28 22766:406 JLINK_ReadReg(FPS22)  returns 0x00000000 (0000ms, 181371ms total)
T0C28 22766:406 JLINK_ReadReg(FPS23)  returns 0x00000000 (0000ms, 181371ms total)
T0C28 22766:406 JLINK_ReadReg(FPS24)  returns 0x00000000 (0000ms, 181371ms total)
T0C28 22766:406 JLINK_ReadReg(FPS25)  returns 0x00000000 (0000ms, 181371ms total)
T0C28 22766:406 JLINK_ReadReg(FPS26)  returns 0x00000000 (0000ms, 181371ms total)
T0C28 22766:406 JLINK_ReadReg(FPS27)  returns 0x00000000 (0000ms, 181371ms total)
T0C28 22766:406 JLINK_ReadReg(FPS28)  returns 0x00000000 (0000ms, 181371ms total)
T0C28 22766:406 JLINK_ReadReg(FPS29)  returns 0x00000000 (0000ms, 181371ms total)
T0C28 22766:406 JLINK_ReadReg(FPS30)  returns 0x00000000 (0000ms, 181371ms total)
T0C28 22766:406 JLINK_ReadReg(FPS31)  returns 0x00000000 (0000ms, 181371ms total)
T3C14 22766:409 JLINK_ReadMemU32(0xE0001004, 0x0001 Items, ...) -- CPU_ReadMem(4 bytes @ 0xE0001004) - Data: 7B A0 01 00  returns 0x01 (0000ms, 181371ms total)
T3C14 22766:409 JLINK_ReadMemEx(0x20000189, 0x0001 Bytes, ..., Flags = 0x02000000) -- CPU_ReadMem(64 bytes @ 0x20000180) -- Updating C cache (64 bytes @ 0x20000180) -- Read from C cache (1 bytes @ 0x20000189) - Data: 00  returns 0x01 (0001ms, 181372ms total)
T3C14 22766:410 JLINK_ReadMemEx(0x00000000, 0x0002 Bytes, ..., Flags = 0x02000000) -- CPU_ReadMem(4 bytes @ 0x00000004) -- Read from flash cache (2 bytes @ 0x08000000) - Data: 40 BB  returns 0x02 (0000ms, 181372ms total)
T3C14 22766:410 JLINK_ReadMemEx(0x200001C8, 0x0004 Bytes, ..., Flags = 0x02000000) -- CPU_ReadMem(64 bytes @ 0x200001C0) -- Updating C cache (64 bytes @ 0x200001C0) -- Read from C cache (4 bytes @ 0x200001C8) - Data: 00 00 C8 41  returns 0x04 (0001ms, 181373ms total)
T3C14 22766:411 JLINK_ReadMemEx(0x00000000, 0x0004 Bytes, ..., Flags = 0x02000000) -- Read from flash cache (4 bytes @ 0x08000000) - Data: 40 BB 00 20  returns 0x04 (0000ms, 181373ms total)
T3C14 22766:411 JLINK_ReadMemEx(0x20002BA0, 0x0004 Bytes, ..., Flags = 0x02000000) -- CPU_ReadMem(64 bytes @ 0x20002B80) -- Updating C cache (64 bytes @ 0x20002B80) -- Read from C cache (4 bytes @ 0x20002BA0) - Data: 00 00 00 00  returns 0x04 (0000ms, 181373ms total)
T3C14 22766:411 JLINK_ReadMemEx(0x20002DCC, 0x0004 Bytes, ..., Flags = 0x02000000) -- CPU_ReadMem(64 bytes @ 0x20002DC0) -- Updating C cache (64 bytes @ 0x20002DC0) -- Read from C cache (4 bytes @ 0x20002DCC) - Data: 00 00 00 00  returns 0x04 (0001ms, 181374ms total)
T3C14 22766:412 JLINK_ReadMemEx(0x200001E4, 0x0004 Bytes, ..., Flags = 0x02000000) -- Read from C cache (4 bytes @ 0x200001E4) - Data: 00 00 00 00  returns 0x04 (0000ms, 181374ms total)
T3C14 22766:412 JLINK_ReadMemEx(0x200001A8, 0x0001 Bytes, ..., Flags = 0x02000000) -- Read from C cache (1 bytes @ 0x200001A8) - Data: 00  returns 0x01 (0000ms, 181374ms total)
T3C14 22766:412 JLINK_ReadMemEx(0x200001A7, 0x0001 Bytes, ..., Flags = 0x02000000) -- Read from C cache (1 bytes @ 0x200001A7) - Data: 00  returns 0x01 (0000ms, 181374ms total)
T3C14 22766:412 JLINK_ReadMemEx(0x200001A6, 0x0001 Bytes, ..., Flags = 0x02000000) -- Read from C cache (1 bytes @ 0x200001A6) - Data: 00  returns 0x01 (0000ms, 181374ms total)
T3C14 22766:412 JLINK_ReadMemEx(0x200001A5, 0x0001 Bytes, ..., Flags = 0x02000000) -- Read from C cache (1 bytes @ 0x200001A5) - Data: 00  returns 0x01 (0000ms, 181374ms total)
T3C14 22766:412 JLINK_ReadMemEx(0x200001A4, 0x0001 Bytes, ..., Flags = 0x02000000) -- Read from C cache (1 bytes @ 0x200001A4) - Data: 00  returns 0x01 (0000ms, 181374ms total)
T3C14 22766:412 JLINK_ReadMemEx(0x20002BD4, 0x0004 Bytes, ..., Flags = 0x02000000) -- CPU_ReadMem(64 bytes @ 0x20002BC0) -- Updating C cache (64 bytes @ 0x20002BC0) -- Read from C cache (4 bytes @ 0x20002BD4) - Data: 00 00 00 00  returns 0x04 (0001ms, 181375ms total)
T3C14 22766:413 JLINK_ReadMemEx(0x200001C4, 0x0004 Bytes, ..., Flags = 0x02000000) -- Read from C cache (4 bytes @ 0x200001C4) - Data: 00 00 2F 44  returns 0x04 (0000ms, 181375ms total)
T3C14 22766:413 JLINK_ReadMemEx(0x200001BA, 0x0002 Bytes, ..., Flags = 0x02000000) -- Read from C cache (2 bytes @ 0x200001BA) - Data: 00 00  returns 0x02 (0000ms, 181375ms total)
T3C14 22766:425 JLINK_ReadMemU32(0xE0001008, 0x0001 Items, ...) -- CPU_ReadMem(4 bytes @ 0xE0001008) - Data: 82 00 00 00  returns 0x01 (0000ms, 181375ms total)
T3C14 22766:425 JLINK_ReadMemU32(0xE000100C, 0x0001 Items, ...) -- CPU_ReadMem(4 bytes @ 0xE000100C) - Data: 00 00 00 00  returns 0x01 (0001ms, 181376ms total)
T3C14 22766:426 JLINK_ReadMemU32(0xE0001010, 0x0001 Items, ...) -- CPU_ReadMem(4 bytes @ 0xE0001010) - Data: 00 00 00 00  returns 0x01 (0000ms, 181376ms total)
T3C14 22766:426 JLINK_ReadMemU32(0xE0001014, 0x0001 Items, ...) -- CPU_ReadMem(4 bytes @ 0xE0001014) - Data: 59 00 00 00  returns 0x01 (0000ms, 181376ms total)
T3C14 22766:426 JLINK_ReadMemU32(0xE0001018, 0x0001 Items, ...) -- CPU_ReadMem(4 bytes @ 0xE0001018) - Data: 02 00 00 00  returns 0x01 (0001ms, 181377ms total)
T3C14 22766:431 JLINK_ReadMemEx(0x0800BEC8, 0x003C Bytes, ..., Flags = 0x02000000) -- Read from flash cache (60 bytes @ 0x0800BEC8) - Data: 4F F0 E0 20 01 69 41 F0 04 01 01 61 6F F0 7F 41 ...  returns 0x3C (0001ms, 181378ms total)
T0C28 22776:309 JLINK_ReadMemEx(0x0800BEC8, 0x0002 Bytes, ..., Flags = 0x02000000) -- Read from flash cache (2 bytes @ 0x0800BEC8) - Data: 4F F0  returns 0x02 (0000ms, 181378ms total)
T0C28 22776:309 JLINK_ReadMemU32(0xE0001004, 0x0001 Items, ...) - Data: 7B A0 01 00  returns 0x01 (0000ms, 181378ms total)
T0C28 22776:309 JLINK_WriteU32(0xE0001004, 0x0001A3FF)  returns 0x00 (0000ms, 181378ms total)
T0C28 22776:309 JLINK_WriteU32(0xE0001000, 0x003F1A1F)  returns 0x00 (0000ms, 181378ms total)
T0C28 22776:309 JLINK_WriteU32(0xE0000E80, 0x0001030F)  returns 0x00 (0000ms, 181378ms total)
T0C28 22776:309 JLINK_SWO_Control(JLINKARM_SWO_CMD_GET_NUM_BYTES, ...)  returns 0x00 (0000ms, 181378ms total)
T0C28 22776:309 JLINK_Go() -- CPU_WriteMem(4 bytes @ 0xE0001000) -- CPU_ReadMem(4 bytes @ 0xE0001000) -- CPU_WriteMem(4 bytes @ 0xE0000E80) -- CPU_WriteMem(4 bytes @ 0xE0002008) -- CPU_WriteMem(4 bytes @ 0xE0001004) (0002ms, 181380ms total)
T0C28 22776:413 JLINK_SWO_Read(..., Offset = 0x00, NumBytes = 0x400000) - Data:  NumBytesRead = 0x00 (0000ms, 181380ms total)
T0C28 22776:415 JLINK_SWO_Control(JLINKARM_SWO_CMD_FLUSH, ...)  returns 0x00 (0000ms, 181380ms total)
T0C28 22776:415 JLINK_IsHalted()  returns FALSE (0000ms, 181380ms total)
T0C28 22776:516 JLINK_SWO_Read(..., Offset = 0x00, NumBytes = 0x400000) - Data:  NumBytesRead = 0x00 (0000ms, 181380ms total)
T0C28 22776:518 JLINK_SWO_Control(JLINKARM_SWO_CMD_FLUSH, ...)  returns 0x00 (0000ms, 181380ms total)
T0C28 22776:518 JLINK_IsHalted()  returns FALSE (0000ms, 181380ms total)
T0C28 22776:620 JLINK_SWO_Read(..., Offset = 0x00, NumBytes = 0x400000) - Data:  NumBytesRead = 0x00 (0000ms, 181380ms total)
T0C28 22776:622 JLINK_SWO_Control(JLINKARM_SWO_CMD_FLUSH, ...)  returns 0x00 (0000ms, 181380ms total)
T0C28 22776:622 JLINK_IsHalted()  returns FALSE (0000ms, 181380ms total)
T0C28 22776:723 JLINK_SWO_Read(..., Offset = 0x00, NumBytes = 0x400000) - Data:  NumBytesRead = 0x00 (0000ms, 181380ms total)
T0C28 22776:725 JLINK_SWO_Control(JLINKARM_SWO_CMD_FLUSH, ...)  returns 0x00 (0000ms, 181380ms total)
T0C28 22776:725 JLINK_IsHalted()  returns FALSE (0000ms, 181380ms total)
T0C28 22776:827 JLINK_SWO_Read(..., Offset = 0x00, NumBytes = 0x400000) - Data:  NumBytesRead = 0x00 (0000ms, 181380ms total)
T0C28 22776:829 JLINK_SWO_Control(JLINKARM_SWO_CMD_FLUSH, ...)  returns 0x00 (0000ms, 181380ms total)
T0C28 22776:829 JLINK_ReadMemU32(0xE0001004, 0x0001 Items, ...) -- CPU_ReadMem(4 bytes @ 0xE0001004) - Data: D7 67 30 05  returns 0x01 (0000ms, 181380ms total)
T3C14 22776:830 JLINK_ReadMemEx(0x20000189, 0x0001 Bytes, ..., Flags = 0x02000000) -- CPU_ReadMem(1 bytes @ 0x20000189) - Data: 00  returns 0x01 (0001ms, 181381ms total)
T3C14 22776:831 JLINK_ReadMemEx(0x00000000, 0x0002 Bytes, ..., Flags = 0x02000000) -- CPU_ReadMem(4 bytes @ 0x00000004) -- Read from flash cache (2 bytes @ 0x08000000) - Data: 40 BB  returns 0x02 (0001ms, 181382ms total)
T3C14 22776:832 JLINK_ReadMemEx(0x00000000, 0x0002 Bytes, ..., Flags = 0x02000000) -- Read from flash cache (2 bytes @ 0x08000000) - Data: 40 BB  returns 0x02 (0000ms, 181382ms total)
T3C14 22776:832 JLINK_ReadMemEx(0x200001C8, 0x0004 Bytes, ..., Flags = 0x02000000) -- CPU_ReadMem(4 bytes @ 0x200001C8) - Data: 00 00 C8 41  returns 0x04 (0000ms, 181382ms total)
T3C14 22776:832 JLINK_ReadMemEx(0x00000000, 0x0004 Bytes, ..., Flags = 0x02000000) -- Read from flash cache (4 bytes @ 0x08000000) - Data: 40 BB 00 20  returns 0x04 (0001ms, 181383ms total)
T3C14 22776:833 JLINK_ReadMemEx(0x00000000, 0x0004 Bytes, ..., Flags = 0x02000000) -- Read from flash cache (4 bytes @ 0x08000000) - Data: 40 BB 00 20  returns 0x04 (0000ms, 181383ms total)
T3C14 22776:834 JLINK_ReadMemEx(0x20002BA0, 0x0004 Bytes, ..., Flags = 0x02000000) -- CPU_ReadMem(4 bytes @ 0x20002BA0) - Data: 00 00 00 00  returns 0x04 (0000ms, 181383ms total)
T3C14 22776:834 JLINK_ReadMemEx(0x20002DCC, 0x0004 Bytes, ..., Flags = 0x02000000) -- CPU_ReadMem(4 bytes @ 0x20002DCC) - Data: 4C D8 2D 43  returns 0x04 (0000ms, 181383ms total)
T3C14 22776:834 JLINK_ReadMemEx(0x200001E4, 0x0004 Bytes, ..., Flags = 0x02000000) -- CPU_ReadMem(4 bytes @ 0x200001E4) - Data: 00 00 00 00  returns 0x04 (0001ms, 181384ms total)
T3C14 22776:835 JLINK_ReadMemEx(0x200001A8, 0x0001 Bytes, ..., Flags = 0x02000000) -- CPU_ReadMem(1 bytes @ 0x200001A8) - Data: 3A  returns 0x01 (0001ms, 181385ms total)
T3C14 22776:836 JLINK_ReadMemEx(0x200001A7, 0x0001 Bytes, ..., Flags = 0x02000000) -- CPU_ReadMem(1 bytes @ 0x200001A7) - Data: 03  returns 0x01 (0001ms, 181386ms total)
T3C14 22776:837 JLINK_ReadMemEx(0x200001A6, 0x0001 Bytes, ..., Flags = 0x02000000) -- CPU_ReadMem(1 bytes @ 0x200001A6) - Data: 00  returns 0x01 (0000ms, 181386ms total)
T3C14 22776:837 JLINK_ReadMemEx(0x200001A5, 0x0001 Bytes, ..., Flags = 0x02000000) -- CPU_ReadMem(1 bytes @ 0x200001A5) - Data: 9F  returns 0x01 (0001ms, 181387ms total)
T3C14 22776:838 JLINK_ReadMemEx(0x200001A4, 0x0001 Bytes, ..., Flags = 0x02000000) -- CPU_ReadMem(1 bytes @ 0x200001A4) - Data: 7B  returns 0x01 (0001ms, 181388ms total)
T3C14 22776:839 JLINK_ReadMemEx(0x20002BD4, 0x0004 Bytes, ..., Flags = 0x02000000) -- CPU_ReadMem(4 bytes @ 0x20002BD4) - Data: 00 00 00 00  returns 0x04 (0000ms, 181388ms total)
T3C14 22776:839 JLINK_ReadMemEx(0x200001C4, 0x0004 Bytes, ..., Flags = 0x02000000) -- CPU_ReadMem(4 bytes @ 0x200001C4) - Data: 00 00 2F 44  returns 0x04 (0001ms, 181389ms total)
T3C14 22776:840 JLINK_ReadMemEx(0x200001BA, 0x0002 Bytes, ..., Flags = 0x02000000) -- CPU_ReadMem(2 bytes @ 0x200001BA) - Data: 63 03  returns 0x02 (0000ms, 181389ms total)
T3C14 22776:840 JLINK_ReadMemEx(0x00000000, 0x0004 Bytes, ..., Flags = 0x02000000) -- Read from flash cache (4 bytes @ 0x08000000) - Data: 40 BB 00 20  returns 0x04 (0000ms, 181389ms total)
T3C14 22776:840 JLINK_ReadMemEx(0x00000000, 0x0004 Bytes, ..., Flags = 0x02000000) -- Read from flash cache (4 bytes @ 0x08000000) - Data: 40 BB 00 20  returns 0x04 (0000ms, 181389ms total)
T3C14 22776:840 JLINK_ReadMemEx(0x00000000, 0x0004 Bytes, ..., Flags = 0x02000000) -- Read from flash cache (4 bytes @ 0x08000000) - Data: 40 BB 00 20  returns 0x04 (0000ms, 181389ms total)
T3C14 22776:851 JLINK_ReadMemU32(0xE0001008, 0x0001 Items, ...) -- CPU_ReadMem(4 bytes @ 0xE0001008) - Data: 60 00 00 00  returns 0x01 (0001ms, 181390ms total)
T3C14 22776:852 JLINK_ReadMemU32(0xE000100C, 0x0001 Items, ...) -- CPU_ReadMem(4 bytes @ 0xE000100C) - Data: 5E 00 00 00  returns 0x01 (0000ms, 181390ms total)
T3C14 22776:852 JLINK_ReadMemU32(0xE0001010, 0x0001 Items, ...) -- CPU_ReadMem(4 bytes @ 0xE0001010) - Data: 00 00 00 00  returns 0x01 (0000ms, 181390ms total)
T3C14 22776:852 JLINK_ReadMemU32(0xE0001014, 0x0001 Items, ...) -- CPU_ReadMem(4 bytes @ 0xE0001014) - Data: 44 00 00 00  returns 0x01 (0001ms, 181391ms total)
T3C14 22776:854 JLINK_ReadMemU32(0xE0001018, 0x0001 Items, ...) -- CPU_ReadMem(4 bytes @ 0xE0001018) - Data: 0A 00 00 00  returns 0x01 (0000ms, 181391ms total)
T0C28 22776:857 JLINK_IsHalted()  returns FALSE (0000ms, 181391ms total)
T0C28 22776:958 JLINK_SWO_Read(..., Offset = 0x00, NumBytes = 0x400000) - Data:  NumBytesRead = 0x00 (0000ms, 181391ms total)
T0C28 22776:960 JLINK_SWO_Control(JLINKARM_SWO_CMD_FLUSH, ...)  returns 0x00 (0000ms, 181391ms total)
T0C28 22776:960 JLINK_IsHalted()  returns FALSE (0000ms, 181391ms total)
T0C28 22777:062 JLINK_SWO_Read(..., Offset = 0x00, NumBytes = 0x400000) - Data:  NumBytesRead = 0x00 (0000ms, 181391ms total)
T0C28 22777:064 JLINK_SWO_Control(JLINKARM_SWO_CMD_FLUSH, ...)  returns 0x00 (0000ms, 181391ms total)
T0C28 22777:064 JLINK_IsHalted()  returns FALSE (0000ms, 181391ms total)
T0C28 22777:165 JLINK_SWO_Read(..., Offset = 0x00, NumBytes = 0x400000) - Data:  NumBytesRead = 0x00 (0000ms, 181391ms total)
T0C28 22777:167 JLINK_SWO_Control(JLINKARM_SWO_CMD_FLUSH, ...)  returns 0x00 (0000ms, 181391ms total)
T0C28 22777:167 JLINK_IsHalted()  returns FALSE (0001ms, 181392ms total)
T0C28 22777:268 JLINK_SWO_Read(..., Offset = 0x00, NumBytes = 0x400000) - Data:  NumBytesRead = 0x00 (0000ms, 181391ms total)
T0C28 22777:270 JLINK_SWO_Control(JLINKARM_SWO_CMD_FLUSH, ...)  returns 0x00 (0000ms, 181391ms total)
T0C28 22777:270 JLINK_IsHalted()  returns FALSE (0000ms, 181391ms total)
T0C28 22777:371 JLINK_SWO_Read(..., Offset = 0x00, NumBytes = 0x400000) - Data:  NumBytesRead = 0x00 (0000ms, 181391ms total)
T0C28 22777:373 JLINK_SWO_Control(JLINKARM_SWO_CMD_FLUSH, ...)  returns 0x00 (0000ms, 181391ms total)
T0C28 22777:373 JLINK_ReadMemU32(0xE0001004, 0x0001 Items, ...) - Data: D7 67 30 05  returns 0x01 (0000ms, 181391ms total)
T3C14 22777:375 JLINK_ReadMemEx(0x20000189, 0x0001 Bytes, ..., Flags = 0x02000000) -- CPU_ReadMem(1 bytes @ 0x20000189) - Data: 00  returns 0x01 (0000ms, 181391ms total)
T3C14 22777:375 JLINK_ReadMemEx(0x00000000, 0x0002 Bytes, ..., Flags = 0x02000000) -- Read from flash cache (2 bytes @ 0x08000000) - Data: 40 BB  returns 0x02 (0000ms, 181391ms total)
T3C14 22777:375 JLINK_ReadMemEx(0x00000000, 0x0002 Bytes, ..., Flags = 0x02000000) -- Read from flash cache (2 bytes @ 0x08000000) - Data: 40 BB  returns 0x02 (0000ms, 181391ms total)
T3C14 22777:375 JLINK_ReadMemEx(0x200001C8, 0x0004 Bytes, ..., Flags = 0x02000000) -- CPU_ReadMem(4 bytes @ 0x200001C8) - Data: 60 84 E6 41  returns 0x04 (0001ms, 181392ms total)
T3C14 22777:376 JLINK_ReadMemEx(0x00000000, 0x0004 Bytes, ..., Flags = 0x02000000) -- Read from flash cache (4 bytes @ 0x08000000) - Data: 40 BB 00 20  returns 0x04 (0000ms, 181392ms total)
T3C14 22777:376 JLINK_ReadMemEx(0x00000000, 0x0004 Bytes, ..., Flags = 0x02000000) -- Read from flash cache (4 bytes @ 0x08000000) - Data: 40 BB 00 20  returns 0x04 (0000ms, 181392ms total)
T3C14 22777:376 JLINK_ReadMemEx(0x20002BA0, 0x0004 Bytes, ..., Flags = 0x02000000) -- CPU_ReadMem(4 bytes @ 0x20002BA0) - Data: 98 D7 2D 43  returns 0x04 (0001ms, 181393ms total)
T3C14 22777:377 JLINK_ReadMemEx(0x20002DCC, 0x0004 Bytes, ..., Flags = 0x02000000) -- CPU_ReadMem(4 bytes @ 0x20002DCC) - Data: 4C D8 2D 43  returns 0x04 (0001ms, 181394ms total)
T3C14 22777:378 JLINK_ReadMemEx(0x200001E4, 0x0004 Bytes, ..., Flags = 0x02000000) -- CPU_ReadMem(4 bytes @ 0x200001E4) - Data: 1A CD C2 41  returns 0x04 (0000ms, 181394ms total)
T3C14 22777:378 JLINK_ReadMemEx(0x200001A8, 0x0001 Bytes, ..., Flags = 0x02000000) -- CPU_ReadMem(1 bytes @ 0x200001A8) - Data: C2  returns 0x01 (0001ms, 181395ms total)
T3C14 22777:380 JLINK_ReadMemEx(0x200001A7, 0x0001 Bytes, ..., Flags = 0x02000000) -- CPU_ReadMem(1 bytes @ 0x200001A7) - Data: 03  returns 0x01 (0000ms, 181395ms total)
T3C14 22777:380 JLINK_ReadMemEx(0x200001A6, 0x0001 Bytes, ..., Flags = 0x02000000) -- CPU_ReadMem(1 bytes @ 0x200001A6) - Data: 00  returns 0x01 (0001ms, 181396ms total)
T3C14 22777:382 JLINK_ReadMemEx(0x200001A5, 0x0001 Bytes, ..., Flags = 0x02000000) -- CPU_ReadMem(1 bytes @ 0x200001A5) - Data: 9F  returns 0x01 (0000ms, 181396ms total)
T3C14 22777:382 JLINK_ReadMemEx(0x200001A4, 0x0001 Bytes, ..., Flags = 0x02000000) -- CPU_ReadMem(1 bytes @ 0x200001A4) - Data: 7B  returns 0x01 (0001ms, 181397ms total)
T3C14 22777:384 JLINK_ReadMemEx(0x20002BD4, 0x0004 Bytes, ..., Flags = 0x02000000) -- CPU_ReadMem(4 bytes @ 0x20002BD4) - Data: 00 00 00 00  returns 0x04 (0000ms, 181397ms total)
